
T157C 2063:894 SEGGER J-Link V4.84c Log File (0000ms, 0568ms total)
T157C 2063:894 DLL Compiled: Apr 16 2014 18:53:07 (0001ms, 0569ms total)
T157C 2063:894 Logging started @ 2014-11-06 19:47 (0001ms, 0569ms total)
T157C 2063:927 JLINK_ExecCommand("Device = AT91SAM3SD8C", ...)Device "ATSAM3SD8C" selected (512 KB flash, 64 KB RAM).  returns 0x00 (0000ms, 0569ms total)
T157C 2063:927 JLINK_GetFirmwareString(...) (0000ms, 0569ms total)
T157C 2063:927 JLINK_GetHardwareVersion()  returns 0x13880 (0000ms, 0569ms total)
T157C 2063:927 JLINK_GetDLLVersion()  returns 48403 (0000ms, 0569ms total)
T157C 2063:931 JLINK_GetFirmwareString(...) (0000ms, 0569ms total)
T157C 2063:931 JLINK_GetHardwareVersion()  returns 0x13880 (0000ms, 0569ms total)
T157C 2063:931 JLINK_GetDLLVersion()  returns 48403 (0000ms, 0569ms total)
T157C 2063:959 JLINK_ExecCommand("ProjectFile = C:\Users\Lonka\Dropbox\Programmierung Allgemein\C ARM_Core\SAM3S_C\GitHub\LBdev\24bit_RGB_interface\..\SAM3S_24bit_RGB_interface\jlink.config", ...)  returns 0x00 (0000ms, 0569ms total)
T157C 2063:991 JLINK_ExecCommand("Device = AT91SAM3SD8C", ...)Device "ATSAM3SD8C" selected (512 KB flash, 64 KB RAM).  returns 0x00 (0000ms, 0569ms total)
T157C 2063:991 JLINK_TIF_Select(JLINKARM_TIF_JTAG)  returns 0x00 (0008ms, 0577ms total)
T157C 2063:999 JLINK_GetIdData(...) >0x2F8 JTAG>TotalIRLen = 4, IRPrint = 0x01 >0x30 JTAG> >0x210 JTAG> >0x70 JTAG> >0x40 JTAG> >0x40 JTAG> >0x40 JTAG> >0x48 JTAG> >0x78 JTAG> >0x40 JTAG> >0x30 JTAG> >0x40 JTAG> >0x40 JTAG> >0x30 JTAG> >0x40 JTAG> >0x48 JTAG>Found Cortex-M3 r2p0, Little endian. -- CPU_WriteMem(4 bytes @ 0xE0002000) -- CPU_ReadMem(4 bytes @ 0xE000EDF0) -- CPU_WriteMem(4 bytes @ 0xE000EDF0) -- CPU_ReadMem(4 bytes @ 0xE0002000)FPUnit: 6 code (BP) slots and 2 literal slots
 -- CPU_ReadMem(4 bytes @ 0xE000EDFC) -- CPU_WriteMem(4 bytes @ 0xE000EDFC) -- CPU_ReadMem(4 bytes @ 0xE0001000) -- CPU_WriteMem(4 bytes @ 0xE0001000) -- CPU_ReadMem(4 bytes @ 0xE00FF010)TPIU fitted. -- CPU_ReadMem(4 bytes @ 0xE00FF014) -- CPU_ReadMem(4 bytes @ 0xE00FF018) ScanLen=4 NumDevices=1 aId[0]=0x4BA00477 aIrRead[0]=0 aScanLen[0]=0 aScanRead[0]=0 (0037ms, 0614ms total)
T157C 2064:036 JLINK_ConfigJTAG(IRPre = 0, DRPre = 0) (0000ms, 0614ms total)
T157C 2064:036 JLINK_SetSpeed(1000) (0001ms, 0615ms total)
T157C 2064:037 JLINK_Connect() >0x2F8 JTAG>TotalIRLen = 4, IRPrint = 0x01 >0x30 JTAG> >0x210 JTAG> >0x70 JTAG> >0x40 JTAG> >0x40 JTAG> >0x40 JTAG> >0x48 JTAG> >0x78 JTAG> >0x40 JTAG> >0x30 JTAG> >0x40 JTAG> >0x40 JTAG> >0x30 JTAG> >0x40 JTAG> >0x48 JTAG>Found Cortex-M3 r2p0, Little endian. -- CPU_WriteMem(4 bytes @ 0xE0002000) -- CPU_ReadMem(4 bytes @ 0xE000EDF0) -- CPU_ReadMem(4 bytes @ 0xE0002000)FPUnit: 6 code (BP) slots and 2 literal slots -- CPU_ReadMem(4 bytes @ 0xE000EDFC)
 -- CPU_ReadMem(4 bytes @ 0xE0001000) -- CPU_WriteMem(4 bytes @ 0xE0001000) -- CPU_ReadMem(4 bytes @ 0xE00FF010)TPIU fitted. -- CPU_ReadMem(4 bytes @ 0xE00FF014) -- CPU_ReadMem(4 bytes @ 0xE00FF018)  returns 0x00 (0031ms, 0646ms total)
T157C 2064:068 JLINK_GetDebugInfo(0x100) -- Value=0xE00FF003  returns 0x00 (0001ms, 0647ms total)
T157C 2064:069 JLINK_ReadMemU8(0xE00FFFF0, 0x0001 Items, ...) -- CPU is running -- CPU_ReadMem(1 bytes @ 0xE00FFFF0) -- Data:  0D  returns 0x01 (0003ms, 0650ms total)
T157C 2064:072 JLINK_ReadMemU8(0xE00FFFF4, 0x0001 Items, ...) -- CPU is running -- CPU_ReadMem(1 bytes @ 0xE00FFFF4) -- Data:  10  returns 0x01 (0001ms, 0651ms total)
T157C 2064:073 JLINK_ReadMemU8(0xE00FFFF8, 0x0001 Items, ...) -- CPU is running -- CPU_ReadMem(1 bytes @ 0xE00FFFF8) -- Data:  05  returns 0x01 (0001ms, 0652ms total)
T157C 2064:074 JLINK_ReadMemU8(0xE00FFFFC, 0x0001 Items, ...) -- CPU is running -- CPU_ReadMem(1 bytes @ 0xE00FFFFC) -- Data:  B1  returns 0x01 (0001ms, 0653ms total)
T157C 2064:075 JLINK_ReadMemU8(0xE00FFFD0, 0x0001 Items, ...) -- CPU is running -- CPU_ReadMem(1 bytes @ 0xE00FFFD0) -- Data:  00  returns 0x01 (0001ms, 0654ms total)
T157C 2064:076 JLINK_ReadMemU8(0xE00FFFD4, 0x0001 Items, ...) -- CPU is running -- CPU_ReadMem(1 bytes @ 0xE00FFFD4) -- Data:  00  returns 0x01 (0001ms, 0655ms total)
T157C 2064:077 JLINK_ReadMemU8(0xE00FFFD8, 0x0001 Items, ...) -- CPU is running -- CPU_ReadMem(1 bytes @ 0xE00FFFD8) -- Data:  00  returns 0x01 (0001ms, 0656ms total)
T157C 2064:078 JLINK_ReadMemU8(0xE00FFFDC, 0x0001 Items, ...) -- CPU is running -- CPU_ReadMem(1 bytes @ 0xE00FFFDC) -- Data:  00  returns 0x01 (0001ms, 0657ms total)
T157C 2064:079 JLINK_ReadMemU8(0xE00FFFE0, 0x0001 Items, ...) -- CPU is running -- CPU_ReadMem(1 bytes @ 0xE00FFFE0) -- Data:  00  returns 0x01 (0001ms, 0658ms total)
T157C 2064:080 JLINK_ReadMemU8(0xE00FFFE4, 0x0001 Items, ...) -- CPU is running -- CPU_ReadMem(1 bytes @ 0xE00FFFE4) -- Data:  00  returns 0x01 (0001ms, 0659ms total)
T157C 2064:081 JLINK_ReadMemU8(0xE00FFFE8, 0x0001 Items, ...) -- CPU is running -- CPU_ReadMem(1 bytes @ 0xE00FFFE8) -- Data:  00  returns 0x01 (0001ms, 0660ms total)
T157C 2064:082 JLINK_ReadMemU8(0xE00FFFEC, 0x0001 Items, ...) -- CPU is running -- CPU_ReadMem(1 bytes @ 0xE00FFFEC) -- Data:  00  returns 0x01 (0001ms, 0661ms total)
T157C 2064:083 JLINK_ReadMemU32(0xE00FF000, 0x0001 Items, ...) -- CPU is running -- CPU_ReadMem(4 bytes @ 0xE00FF000) -- Data:  03 F0 F0 FF  returns 0x01 (0001ms, 0662ms total)
T157C 2064:084 JLINK_ReadMemU8(0xE000EFF0, 0x0001 Items, ...) -- CPU is running -- CPU_ReadMem(1 bytes @ 0xE000EFF0) -- Data:  0D  returns 0x01 (0001ms, 0663ms total)
T157C 2064:085 JLINK_ReadMemU8(0xE000EFF4, 0x0001 Items, ...) -- CPU is running -- CPU_ReadMem(1 bytes @ 0xE000EFF4) -- Data:  E0  returns 0x01 (0001ms, 0664ms total)
T157C 2064:086 JLINK_ReadMemU8(0xE000EFF8, 0x0001 Items, ...) -- CPU is running -- CPU_ReadMem(1 bytes @ 0xE000EFF8) -- Data:  05  returns 0x01 (0001ms, 0665ms total)
T157C 2064:087 JLINK_ReadMemU8(0xE000EFFC, 0x0001 Items, ...) -- CPU is running -- CPU_ReadMem(1 bytes @ 0xE000EFFC) -- Data:  B1  returns 0x01 (0001ms, 0666ms total)
T157C 2064:088 JLINK_ReadMemU8(0xE000EFD0, 0x0001 Items, ...) -- CPU is running -- CPU_ReadMem(1 bytes @ 0xE000EFD0) -- Data:  04  returns 0x01 (0001ms, 0667ms total)
T157C 2064:089 JLINK_ReadMemU8(0xE000EFD4, 0x0001 Items, ...) -- CPU is running -- CPU_ReadMem(1 bytes @ 0xE000EFD4) -- Data:  00  returns 0x01 (0001ms, 0668ms total)
T157C 2064:090 JLINK_ReadMemU8(0xE000EFD8, 0x0001 Items, ...) -- CPU is running -- CPU_ReadMem(1 bytes @ 0xE000EFD8) -- Data:  00  returns 0x01 (0001ms, 0669ms total)
T157C 2064:091 JLINK_ReadMemU8(0xE000EFDC, 0x0001 Items, ...) -- CPU is running -- CPU_ReadMem(1 bytes @ 0xE000EFDC) -- Data:  00  returns 0x01 (0001ms, 0670ms total)
T157C 2064:092 JLINK_ReadMemU8(0xE000EFE0, 0x0001 Items, ...) -- CPU is running -- CPU_ReadMem(1 bytes @ 0xE000EFE0) -- Data:  00  returns 0x01 (0001ms, 0671ms total)
T157C 2064:093 JLINK_ReadMemU8(0xE000EFE4, 0x0001 Items, ...) -- CPU is running -- CPU_ReadMem(1 bytes @ 0xE000EFE4) -- Data:  B0  returns 0x01 (0001ms, 0672ms total)
T157C 2064:094 JLINK_ReadMemU8(0xE000EFE8, 0x0001 Items, ...) -- CPU is running -- CPU_ReadMem(1 bytes @ 0xE000EFE8) -- Data:  2B  returns 0x01 (0001ms, 0673ms total)
T157C 2064:095 JLINK_ReadMemU8(0xE000EFEC, 0x0001 Items, ...) -- CPU is running -- CPU_ReadMem(1 bytes @ 0xE000EFEC) -- Data:  00  returns 0x01 (0001ms, 0674ms total)
T157C 2064:096 JLINK_ReadMemU32(0xE00FF004, 0x0001 Items, ...) -- CPU is running -- CPU_ReadMem(4 bytes @ 0xE00FF004) -- Data:  03 20 F0 FF  returns 0x01 (0001ms, 0675ms total)
T157C 2064:097 JLINK_ReadMemU8(0xE0001FF0, 0x0001 Items, ...) -- CPU is running -- CPU_ReadMem(1 bytes @ 0xE0001FF0) -- Data:  0D  returns 0x01 (0001ms, 0676ms total)
T157C 2064:098 JLINK_ReadMemU8(0xE0001FF4, 0x0001 Items, ...) -- CPU is running -- CPU_ReadMem(1 bytes @ 0xE0001FF4) -- Data:  E0  returns 0x01 (0000ms, 0676ms total)
T157C 2064:098 JLINK_ReadMemU8(0xE0001FF8, 0x0001 Items, ...) -- CPU is running -- CPU_ReadMem(1 bytes @ 0xE0001FF8) -- Data:  05  returns 0x01 (0001ms, 0677ms total)
T157C 2064:099 JLINK_ReadMemU8(0xE0001FFC, 0x0001 Items, ...) -- CPU is running -- CPU_ReadMem(1 bytes @ 0xE0001FFC) -- Data:  B1  returns 0x01 (0002ms, 0679ms total)
T157C 2064:101 JLINK_ReadMemU8(0xE0001FD0, 0x0001 Items, ...) -- CPU is running -- CPU_ReadMem(1 bytes @ 0xE0001FD0) -- Data:  04  returns 0x01 (0001ms, 0680ms total)
T157C 2064:102 JLINK_ReadMemU8(0xE0001FD4, 0x0001 Items, ...) -- CPU is running -- CPU_ReadMem(1 bytes @ 0xE0001FD4) -- Data:  00  returns 0x01 (0001ms, 0681ms total)
T157C 2064:103 JLINK_ReadMemU8(0xE0001FD8, 0x0001 Items, ...) -- CPU is running -- CPU_ReadMem(1 bytes @ 0xE0001FD8) -- Data:  00  returns 0x01 (0001ms, 0682ms total)
T157C 2064:104 JLINK_ReadMemU8(0xE0001FDC, 0x0001 Items, ...) -- CPU is running -- CPU_ReadMem(1 bytes @ 0xE0001FDC) -- Data:  00  returns 0x01 (0001ms, 0683ms total)
T157C 2064:105 JLINK_ReadMemU8(0xE0001FE0, 0x0001 Items, ...) -- CPU is running -- CPU_ReadMem(1 bytes @ 0xE0001FE0) -- Data:  02  returns 0x01 (0001ms, 0684ms total)
T157C 2064:106 JLINK_ReadMemU8(0xE0001FE4, 0x0001 Items, ...) -- CPU is running -- CPU_ReadMem(1 bytes @ 0xE0001FE4) -- Data:  B0  returns 0x01 (0001ms, 0685ms total)
T157C 2064:107 JLINK_ReadMemU8(0xE0001FE8, 0x0001 Items, ...) -- CPU is running -- CPU_ReadMem(1 bytes @ 0xE0001FE8) -- Data:  2B  returns 0x01 (0001ms, 0686ms total)
T157C 2064:108 JLINK_ReadMemU8(0xE0001FEC, 0x0001 Items, ...) -- CPU is running -- CPU_ReadMem(1 bytes @ 0xE0001FEC) -- Data:  00  returns 0x01 (0001ms, 0687ms total)
T157C 2064:109 JLINK_ReadMemU32(0xE00FF008, 0x0001 Items, ...) -- CPU is running -- CPU_ReadMem(4 bytes @ 0xE00FF008) -- Data:  03 30 F0 FF  returns 0x01 (0001ms, 0688ms total)
T157C 2064:110 JLINK_ReadMemU8(0xE0002FF0, 0x0001 Items, ...) -- CPU is running -- CPU_ReadMem(1 bytes @ 0xE0002FF0) -- Data:  0D  returns 0x01 (0001ms, 0689ms total)
T157C 2064:111 JLINK_ReadMemU8(0xE0002FF4, 0x0001 Items, ...) -- CPU is running -- CPU_ReadMem(1 bytes @ 0xE0002FF4) -- Data:  E0  returns 0x01 (0001ms, 0690ms total)
T157C 2064:112 JLINK_ReadMemU8(0xE0002FF8, 0x0001 Items, ...) -- CPU is running -- CPU_ReadMem(1 bytes @ 0xE0002FF8) -- Data:  05  returns 0x01 (0001ms, 0691ms total)
T157C 2064:113 JLINK_ReadMemU8(0xE0002FFC, 0x0001 Items, ...) -- CPU is running -- CPU_ReadMem(1 bytes @ 0xE0002FFC) -- Data:  B1  returns 0x01 (0001ms, 0692ms total)
T157C 2064:114 JLINK_ReadMemU8(0xE0002FD0, 0x0001 Items, ...) -- CPU is running -- CPU_ReadMem(1 bytes @ 0xE0002FD0) -- Data:  04  returns 0x01 (0001ms, 0693ms total)
T157C 2064:115 JLINK_ReadMemU8(0xE0002FD4, 0x0001 Items, ...) -- CPU is running -- CPU_ReadMem(1 bytes @ 0xE0002FD4) -- Data:  00  returns 0x01 (0001ms, 0694ms total)
T157C 2064:116 JLINK_ReadMemU8(0xE0002FD8, 0x0001 Items, ...) -- CPU is running -- CPU_ReadMem(1 bytes @ 0xE0002FD8) -- Data:  00  returns 0x01 (0001ms, 0695ms total)
T157C 2064:117 JLINK_ReadMemU8(0xE0002FDC, 0x0001 Items, ...) -- CPU is running -- CPU_ReadMem(1 bytes @ 0xE0002FDC) -- Data:  00  returns 0x01 (0001ms, 0696ms total)
T157C 2064:118 JLINK_ReadMemU8(0xE0002FE0, 0x0001 Items, ...) -- CPU is running -- CPU_ReadMem(1 bytes @ 0xE0002FE0) -- Data:  03  returns 0x01 (0001ms, 0697ms total)
T157C 2064:119 JLINK_ReadMemU8(0xE0002FE4, 0x0001 Items, ...) -- CPU is running -- CPU_ReadMem(1 bytes @ 0xE0002FE4) -- Data:  B0  returns 0x01 (0001ms, 0698ms total)
T157C 2064:120 JLINK_ReadMemU8(0xE0002FE8, 0x0001 Items, ...) -- CPU is running -- CPU_ReadMem(1 bytes @ 0xE0002FE8) -- Data:  2B  returns 0x01 (0001ms, 0699ms total)
T157C 2064:121 JLINK_ReadMemU8(0xE0002FEC, 0x0001 Items, ...) -- CPU is running -- CPU_ReadMem(1 bytes @ 0xE0002FEC) -- Data:  00  returns 0x01 (0001ms, 0700ms total)
T157C 2064:122 JLINK_ReadMemU32(0xE00FF00C, 0x0001 Items, ...) -- CPU is running -- CPU_ReadMem(4 bytes @ 0xE00FF00C) -- Data:  03 10 F0 FF  returns 0x01 (0001ms, 0701ms total)
T157C 2064:123 JLINK_ReadMemU8(0xE0000FF0, 0x0001 Items, ...) -- CPU is running -- CPU_ReadMem(1 bytes @ 0xE0000FF0) -- Data:  0D  returns 0x01 (0001ms, 0702ms total)
T157C 2064:124 JLINK_ReadMemU8(0xE0000FF4, 0x0001 Items, ...) -- CPU is running -- CPU_ReadMem(1 bytes @ 0xE0000FF4) -- Data:  E0  returns 0x01 (0001ms, 0703ms total)
T157C 2064:125 JLINK_ReadMemU8(0xE0000FF8, 0x0001 Items, ...) -- CPU is running -- CPU_ReadMem(1 bytes @ 0xE0000FF8) -- Data:  05  returns 0x01 (0001ms, 0704ms total)
T157C 2064:126 JLINK_ReadMemU8(0xE0000FFC, 0x0001 Items, ...) -- CPU is running -- CPU_ReadMem(1 bytes @ 0xE0000FFC) -- Data:  B1  returns 0x01 (0001ms, 0705ms total)
T157C 2064:127 JLINK_ReadMemU8(0xE0000FD0, 0x0001 Items, ...) -- CPU is running -- CPU_ReadMem(1 bytes @ 0xE0000FD0) -- Data:  04  returns 0x01 (0001ms, 0706ms total)
T157C 2064:128 JLINK_ReadMemU8(0xE0000FD4, 0x0001 Items, ...) -- CPU is running -- CPU_ReadMem(1 bytes @ 0xE0000FD4) -- Data:  00  returns 0x01 (0001ms, 0707ms total)
T157C 2064:129 JLINK_ReadMemU8(0xE0000FD8, 0x0001 Items, ...) -- CPU is running -- CPU_ReadMem(1 bytes @ 0xE0000FD8) -- Data:  00  returns 0x01 (0001ms, 0708ms total)
T157C 2064:130 JLINK_ReadMemU8(0xE0000FDC, 0x0001 Items, ...) -- CPU is running -- CPU_ReadMem(1 bytes @ 0xE0000FDC) -- Data:  00  returns 0x01 (0001ms, 0709ms total)
T157C 2064:131 JLINK_ReadMemU8(0xE0000FE0, 0x0001 Items, ...) -- CPU is running -- CPU_ReadMem(1 bytes @ 0xE0000FE0) -- Data:  01  returns 0x01 (0001ms, 0710ms total)
T157C 2064:132 JLINK_ReadMemU8(0xE0000FE4, 0x0001 Items, ...) -- CPU is running -- CPU_ReadMem(1 bytes @ 0xE0000FE4) -- Data:  B0  returns 0x01 (0001ms, 0711ms total)
T157C 2064:133 JLINK_ReadMemU8(0xE0000FE8, 0x0001 Items, ...) -- CPU is running -- CPU_ReadMem(1 bytes @ 0xE0000FE8) -- Data:  2B  returns 0x01 (0001ms, 0712ms total)
T157C 2064:134 JLINK_ReadMemU8(0xE0000FEC, 0x0001 Items, ...) -- CPU is running -- CPU_ReadMem(1 bytes @ 0xE0000FEC) -- Data:  00  returns 0x01 (0001ms, 0713ms total)
T157C 2064:135 JLINK_ReadMemU32(0xE00FF010, 0x0001 Items, ...) -- CPU is running -- CPU_ReadMem(4 bytes @ 0xE00FF010) -- Data:  03 10 F4 FF  returns 0x01 (0001ms, 0714ms total)
T157C 2064:136 JLINK_ReadMemU8(0xE0040FF0, 0x0001 Items, ...) -- CPU is running -- CPU_ReadMem(1 bytes @ 0xE0040FF0) -- Data:  0D  returns 0x01 (0001ms, 0715ms total)
T157C 2064:137 JLINK_ReadMemU8(0xE0040FF4, 0x0001 Items, ...) -- CPU is running -- CPU_ReadMem(1 bytes @ 0xE0040FF4) -- Data:  90  returns 0x01 (0001ms, 0716ms total)
T157C 2064:138 JLINK_ReadMemU8(0xE0040FF8, 0x0001 Items, ...) -- CPU is running -- CPU_ReadMem(1 bytes @ 0xE0040FF8) -- Data:  05  returns 0x01 (0001ms, 0717ms total)
T157C 2064:139 JLINK_ReadMemU8(0xE0040FFC, 0x0001 Items, ...) -- CPU is running -- CPU_ReadMem(1 bytes @ 0xE0040FFC) -- Data:  B1  returns 0x01 (0000ms, 0717ms total)
T157C 2064:139 JLINK_ReadMemU8(0xE0040FD0, 0x0001 Items, ...) -- CPU is running -- CPU_ReadMem(1 bytes @ 0xE0040FD0) -- Data:  04  returns 0x01 (0001ms, 0718ms total)
T157C 2064:140 JLINK_ReadMemU8(0xE0040FD4, 0x0001 Items, ...) -- CPU is running -- CPU_ReadMem(1 bytes @ 0xE0040FD4) -- Data:  00  returns 0x01 (0001ms, 0719ms total)
T157C 2064:142 JLINK_ReadMemU8(0xE0040FD8, 0x0001 Items, ...) -- CPU is running -- CPU_ReadMem(1 bytes @ 0xE0040FD8) -- Data:  00  returns 0x01 (0001ms, 0720ms total)
T157C 2064:143 JLINK_ReadMemU8(0xE0040FDC, 0x0001 Items, ...) -- CPU is running -- CPU_ReadMem(1 bytes @ 0xE0040FDC) -- Data:  00  returns 0x01 (0001ms, 0721ms total)
T157C 2064:144 JLINK_ReadMemU8(0xE0040FE0, 0x0001 Items, ...) -- CPU is running -- CPU_ReadMem(1 bytes @ 0xE0040FE0) -- Data:  23  returns 0x01 (0001ms, 0722ms total)
T157C 2064:145 JLINK_ReadMemU8(0xE0040FE4, 0x0001 Items, ...) -- CPU is running -- CPU_ReadMem(1 bytes @ 0xE0040FE4) -- Data:  B9  returns 0x01 (0001ms, 0723ms total)
T157C 2064:146 JLINK_ReadMemU8(0xE0040FE8, 0x0001 Items, ...) -- CPU is running -- CPU_ReadMem(1 bytes @ 0xE0040FE8) -- Data:  2B  returns 0x01 (0001ms, 0724ms total)
T157C 2064:147 JLINK_ReadMemU8(0xE0040FEC, 0x0001 Items, ...) -- CPU is running -- CPU_ReadMem(1 bytes @ 0xE0040FEC) -- Data:  00  returns 0x01 (0001ms, 0725ms total)
T157C 2064:148 JLINK_ReadMemU32(0xE00FF014, 0x0001 Items, ...) -- CPU is running -- CPU_ReadMem(4 bytes @ 0xE00FF014) -- Data:  02 20 F4 FF  returns 0x01 (0001ms, 0726ms total)
T157C 2064:149 JLINK_ReadMemU32(0xE00FF018, 0x0001 Items, ...) -- CPU is running -- CPU_ReadMem(4 bytes @ 0xE00FF018) -- Data:  00 00 00 00  returns 0x01 (0001ms, 0727ms total)
T157C 2064:150 JLINK_ReadMem (0xE0001000, 0x0004 Bytes, ...) -- CPU is running -- CPU_ReadMem(4 bytes @ 0xE0001000) -- Data:  01 00 00 40  returns 0x00 (0001ms, 0728ms total)
T157C 2064:151 JLINK_ReadMem (0xE0001000, 0x0004 Bytes, ...) -- CPU is running -- CPU_ReadMem(4 bytes @ 0xE0001000) -- Data:  01 00 00 40  returns 0x00 (0001ms, 0729ms total)
T157C 2064:152 JLINK_ReadMem (0xE0001028, 0x0004 Bytes, ...) -- CPU is running -- CPU_ReadMem(4 bytes @ 0xE0001028) -- Data:  00 00 00 00  returns 0x00 (0001ms, 0730ms total)
T157C 2064:153 JLINK_WriteMem(0xE0001028, 0x0004 Bytes, ...) -- Data:  00 01 00 00 -- CPU is running -- CPU_WriteMem(4 bytes @ 0xE0001028)  returns 0x04 (0001ms, 0731ms total)
T157C 2064:154 JLINK_ReadMem (0xE0001028, 0x0004 Bytes, ...) -- CPU is running -- CPU_ReadMem(4 bytes @ 0xE0001028) -- Data:  00 00 00 00  returns 0x00 (0001ms, 0732ms total)
T157C 2064:155 JLINK_ReadMem (0xE0001038, 0x0004 Bytes, ...) -- CPU is running -- CPU_ReadMem(4 bytes @ 0xE0001038) -- Data:  00 02 00 00  returns 0x00 (0001ms, 0733ms total)
T157C 2064:156 JLINK_WriteMem(0xE0001038, 0x0004 Bytes, ...) -- Data:  00 03 00 00 -- CPU is running -- CPU_WriteMem(4 bytes @ 0xE0001038)  returns 0x04 (0001ms, 0734ms total)
T157C 2064:157 JLINK_ReadMem (0xE0001038, 0x0004 Bytes, ...) -- CPU is running -- CPU_ReadMem(4 bytes @ 0xE0001038) -- Data:  00 03 00 00  returns 0x00 (0001ms, 0735ms total)
T157C 2064:158 JLINK_ReadMem (0xE0001048, 0x0004 Bytes, ...) -- CPU is running -- CPU_ReadMem(4 bytes @ 0xE0001048) -- Data:  00 00 00 00  returns 0x00 (0001ms, 0736ms total)
T157C 2064:159 JLINK_WriteMem(0xE0001048, 0x0004 Bytes, ...) -- Data:  00 01 00 00 -- CPU is running -- CPU_WriteMem(4 bytes @ 0xE0001048)  returns 0x04 (0001ms, 0737ms total)
T157C 2064:160 JLINK_ReadMem (0xE0001048, 0x0004 Bytes, ...) -- CPU is running -- CPU_ReadMem(4 bytes @ 0xE0001048) -- Data:  00 00 00 00  returns 0x00 (0001ms, 0738ms total)
T157C 2064:161 JLINK_ReadMem (0xE0001058, 0x0004 Bytes, ...) -- CPU is running -- CPU_ReadMem(4 bytes @ 0xE0001058) -- Data:  00 00 00 00  returns 0x00 (0001ms, 0739ms total)
T157C 2064:162 JLINK_WriteMem(0xE0001058, 0x0004 Bytes, ...) -- Data:  00 01 00 00 -- CPU is running -- CPU_WriteMem(4 bytes @ 0xE0001058)  returns 0x04 (0001ms, 0740ms total)
T157C 2064:163 JLINK_ReadMem (0xE0001058, 0x0004 Bytes, ...) -- CPU is running -- CPU_ReadMem(4 bytes @ 0xE0001058) -- Data:  00 00 00 00  returns 0x00 (0001ms, 0741ms total)
T157C 2064:164 JLINK_ReadMem (0xE0001024, 0x0004 Bytes, ...) -- CPU is running -- CPU_ReadMem(4 bytes @ 0xE0001024) -- Data:  00 00 00 00  returns 0x00 (0001ms, 0742ms total)
T157C 2064:165 JLINK_WriteMem(0xE0001024, 0x0004 Bytes, ...) -- Data:  1F 00 00 00 -- CPU is running -- CPU_WriteMem(4 bytes @ 0xE0001024)  returns 0x04 (0001ms, 0743ms total)
T157C 2064:166 JLINK_ReadMem (0xE0001024, 0x0004 Bytes, ...) -- CPU is running -- CPU_ReadMem(4 bytes @ 0xE0001024) -- Data:  0F 00 00 00  returns 0x00 (0001ms, 0744ms total)
T157C 2064:167 JLINK_ReadMem (0xE0001034, 0x0004 Bytes, ...) -- CPU is running -- CPU_ReadMem(4 bytes @ 0xE0001034) -- Data:  00 00 00 00  returns 0x00 (0001ms, 0745ms total)
T157C 2064:168 JLINK_WriteMem(0xE0001034, 0x0004 Bytes, ...) -- Data:  1F 00 00 00 -- CPU is running -- CPU_WriteMem(4 bytes @ 0xE0001034)  returns 0x04 (0001ms, 0746ms total)
T157C 2064:169 JLINK_ReadMem (0xE0001034, 0x0004 Bytes, ...) -- CPU is running -- CPU_ReadMem(4 bytes @ 0xE0001034) -- Data:  0F 00 00 00  returns 0x00 (0001ms, 0747ms total)
T157C 2064:170 JLINK_ReadMem (0xE0001044, 0x0004 Bytes, ...) -- CPU is running -- CPU_ReadMem(4 bytes @ 0xE0001044) -- Data:  00 00 00 00  returns 0x00 (0001ms, 0748ms total)
T157C 2064:171 JLINK_WriteMem(0xE0001044, 0x0004 Bytes, ...) -- Data:  1F 00 00 00 -- CPU is running -- CPU_WriteMem(4 bytes @ 0xE0001044)  returns 0x04 (0001ms, 0749ms total)
T157C 2064:172 JLINK_ReadMem (0xE0001044, 0x0004 Bytes, ...) -- CPU is running -- CPU_ReadMem(4 bytes @ 0xE0001044) -- Data:  0F 00 00 00  returns 0x00 (0001ms, 0750ms total)
T157C 2064:173 JLINK_ReadMem (0xE0001054, 0x0004 Bytes, ...) -- CPU is running -- CPU_ReadMem(4 bytes @ 0xE0001054) -- Data:  05 00 00 00  returns 0x00 (0001ms, 0751ms total)
T157C 2064:174 JLINK_WriteMem(0xE0001054, 0x0004 Bytes, ...) -- Data:  1F 00 00 00 -- CPU is running -- CPU_WriteMem(4 bytes @ 0xE0001054)  returns 0x04 (0001ms, 0752ms total)
T157C 2064:175 JLINK_ReadMem (0xE0001054, 0x0004 Bytes, ...) -- CPU is running -- CPU_ReadMem(4 bytes @ 0xE0001054) -- Data:  0F 00 00 00  returns 0x00 (0001ms, 0753ms total)
T157C 2064:176 JLINK_ReadMem (0xE0001028, 0x0004 Bytes, ...) -- CPU is running -- CPU_ReadMem(4 bytes @ 0xE0001028) -- Data:  00 00 00 00  returns 0x00 (0001ms, 0754ms total)
T157C 2064:177 JLINK_ReadMem (0xE0001038, 0x0004 Bytes, ...) -- CPU is running -- CPU_ReadMem(4 bytes @ 0xE0001038) -- Data:  00 03 00 00  returns 0x00 (0001ms, 0755ms total)
T157C 2064:178 JLINK_ReadMem (0xE0001048, 0x0004 Bytes, ...) -- CPU is running -- CPU_ReadMem(4 bytes @ 0xE0001048) -- Data:  00 00 00 00  returns 0x00 (0001ms, 0756ms total)
T157C 2064:179 JLINK_ReadMem (0xE0001058, 0x0004 Bytes, ...) -- CPU is running -- CPU_ReadMem(4 bytes @ 0xE0001058) -- Data:  00 00 00 00  returns 0x00 (0001ms, 0757ms total)
T157C 2064:180 JLINK_WriteMem(0xE0001020, 0x0004 Bytes, ...) -- Data:  00 00 00 00 -- CPU is running -- CPU_WriteMem(4 bytes @ 0xE0001020)  returns 0x04 (0001ms, 0758ms total)
T157C 2064:181 JLINK_WriteMem(0xE0001024, 0x0004 Bytes, ...) -- Data:  00 00 00 00 -- CPU is running -- CPU_WriteMem(4 bytes @ 0xE0001024)  returns 0x04 (0000ms, 0758ms total)
T157C 2064:181 JLINK_WriteMem(0xE0001028, 0x0004 Bytes, ...) -- Data:  00 00 00 00 -- CPU is running -- CPU_WriteMem(4 bytes @ 0xE0001028)  returns 0x04 (0001ms, 0759ms total)
T157C 2064:182 JLINK_WriteMem(0xE0001030, 0x0004 Bytes, ...) -- Data:  00 00 00 00 -- CPU is running -- CPU_WriteMem(4 bytes @ 0xE0001030)  returns 0x04 (0001ms, 0760ms total)
T157C 2064:184 JLINK_WriteMem(0xE0001034, 0x0004 Bytes, ...) -- Data:  00 00 00 00 -- CPU is running -- CPU_WriteMem(4 bytes @ 0xE0001034)  returns 0x04 (0001ms, 0762ms total)
T157C 2064:185 JLINK_WriteMem(0xE0001038, 0x0004 Bytes, ...) -- Data:  00 00 00 00 -- CPU is running -- CPU_WriteMem(4 bytes @ 0xE0001038)  returns 0x04 (0001ms, 0763ms total)
T157C 2064:186 JLINK_WriteMem(0xE0001040, 0x0004 Bytes, ...) -- Data:  00 00 00 00 -- CPU is running -- CPU_WriteMem(4 bytes @ 0xE0001040)  returns 0x04 (0001ms, 0764ms total)
T157C 2064:187 JLINK_WriteMem(0xE0001044, 0x0004 Bytes, ...) -- Data:  00 00 00 00 -- CPU is running -- CPU_WriteMem(4 bytes @ 0xE0001044)  returns 0x04 (0001ms, 0765ms total)
T157C 2064:188 JLINK_WriteMem(0xE0001048, 0x0004 Bytes, ...) -- Data:  00 00 00 00 -- CPU is running -- CPU_WriteMem(4 bytes @ 0xE0001048)  returns 0x04 (0001ms, 0766ms total)
T157C 2064:189 JLINK_WriteMem(0xE0001050, 0x0004 Bytes, ...) -- Data:  00 00 00 00 -- CPU is running -- CPU_WriteMem(4 bytes @ 0xE0001050)  returns 0x04 (0001ms, 0767ms total)
T157C 2064:190 JLINK_WriteMem(0xE0001054, 0x0004 Bytes, ...) -- Data:  00 00 00 00 -- CPU is running -- CPU_WriteMem(4 bytes @ 0xE0001054)  returns 0x04 (0001ms, 0768ms total)
T157C 2064:191 JLINK_WriteMem(0xE0001058, 0x0004 Bytes, ...) -- Data:  00 00 00 00 -- CPU is running -- CPU_WriteMem(4 bytes @ 0xE0001058)  returns 0x04 (0001ms, 0769ms total)
T157C 2064:193 JLINK_WriteVectorCatch(0x00000001) -- CPU is running -- CPU_ReadMem(4 bytes @ 0xE000EDFC) -- CPU is running -- CPU_WriteMem(4 bytes @ 0xE000EDFC)  returns 0x00 (0003ms, 0772ms total)
T157C 2064:196 JLINK_Reset() -- CPU_ReadMem(16 bytes @ 0x20000000) -- CPU_WriteMem(16 bytes @ 0x20000000) -- CPU_ReadMem(4 bytes @ 0xE000EDFC) -- CPU_WriteMem(4 bytes @ 0xE000EDFC) -- CPU_WriteMem(4 bytes @ 0xE000ED0C) -- CPU_ReadMem(4 bytes @ 0xE000EDF0) -- CPU_ReadMem(4 bytes @ 0xE000EDF0) -- CPU_WriteMem(4 bytes @ 0xE000EDFC) -- CPU_WriteMem(16 bytes @ 0x20000000) -- CPU_WriteMem(4 bytes @ 0xE0002000) -- CPU_ReadMem(4 bytes @ 0xE000EDFC) -- CPU_ReadMem(4 bytes @ 0xE0001000) (0051ms, 0823ms total)
T157C 2064:247 JLINK_JTAG_GetDeviceID(DeviceIndex = 0)  returns 0x4BA00477 (0000ms, 0823ms total)
T157C 2064:247 JLINK_ReadMemU32(0x400E0740, 0x0001 Items, ...) -- CPU_ReadMem(4 bytes @ 0x400E0740) -- Data:  60 0A AB 29  returns 0x01 (0002ms, 0825ms total)
T157C 2064:249 JLINK_WriteMem(0x400E0A04, 0x0004 Bytes, ...) -- Data:  09 00 00 5A -- CPU_WriteMem(4 bytes @ 0x400E0A04)  returns 0x04 (0001ms, 0826ms total)
T157C 2064:250 JLINK_ReadMem (0x400E0A08, 0x0004 Bytes, ...) -- CPU_ReadMem(4 bytes @ 0x400E0A08) -- Data:  01 00 00 00  returns 0x00 (0001ms, 0827ms total)
T157C 2064:251 JLINK_WriteMem(0x400E0A04, 0x0004 Bytes, ...) -- Data:  09 80 00 5A -- CPU_WriteMem(4 bytes @ 0x400E0A04)  returns 0x04 (0001ms, 0828ms total)
T157C 2064:252 JLINK_ReadMem (0x400E0A08, 0x0004 Bytes, ...) -- CPU_ReadMem(4 bytes @ 0x400E0A08) -- Data:  01 00 00 00  returns 0x00 (0001ms, 0829ms total)
T157C 2064:253 JLINK_WriteMem(0x400E0A04, 0x0004 Bytes, ...) -- Data:  09 00 01 5A -- CPU_WriteMem(4 bytes @ 0x400E0A04)  returns 0x04 (0001ms, 0830ms total)
T157C 2064:254 JLINK_ReadMem (0x400E0A08, 0x0004 Bytes, ...) -- CPU_ReadMem(4 bytes @ 0x400E0A08) -- Data:  01 00 00 00  returns 0x00 (0001ms, 0831ms total)
T157C 2064:255 JLINK_WriteMem(0x400E0A04, 0x0004 Bytes, ...) -- Data:  09 80 01 5A -- CPU_WriteMem(4 bytes @ 0x400E0A04)  returns 0x04 (0001ms, 0832ms total)
T157C 2064:256 JLINK_ReadMem (0x400E0A08, 0x0004 Bytes, ...) -- CPU_ReadMem(4 bytes @ 0x400E0A08) -- Data:  01 00 00 00  returns 0x00 (0001ms, 0833ms total)
T157C 2064:257 JLINK_WriteMem(0x400E0A04, 0x0004 Bytes, ...) -- Data:  09 00 02 5A -- CPU_WriteMem(4 bytes @ 0x400E0A04)  returns 0x04 (0001ms, 0834ms total)
T157C 2064:258 JLINK_ReadMem (0x400E0A08, 0x0004 Bytes, ...) -- CPU_ReadMem(4 bytes @ 0x400E0A08) -- Data:  01 00 00 00  returns 0x00 (0001ms, 0835ms total)
T157C 2064:259 JLINK_WriteMem(0x400E0A04, 0x0004 Bytes, ...) -- Data:  09 80 02 5A -- CPU_WriteMem(4 bytes @ 0x400E0A04)  returns 0x04 (0001ms, 0836ms total)
T157C 2064:260 JLINK_ReadMem (0x400E0A08, 0x0004 Bytes, ...) -- CPU_ReadMem(4 bytes @ 0x400E0A08) -- Data:  01 00 00 00  returns 0x00 (0001ms, 0837ms total)
T157C 2064:261 JLINK_WriteMem(0x400E0A04, 0x0004 Bytes, ...) -- Data:  09 00 03 5A -- CPU_WriteMem(4 bytes @ 0x400E0A04)  returns 0x04 (0001ms, 0838ms total)
T157C 2064:262 JLINK_ReadMem (0x400E0A08, 0x0004 Bytes, ...) -- CPU_ReadMem(4 bytes @ 0x400E0A08) -- Data:  01 00 00 00  returns 0x00 (0001ms, 0839ms total)
T157C 2064:263 JLINK_WriteMem(0x400E0A04, 0x0004 Bytes, ...) -- Data:  09 80 03 5A -- CPU_WriteMem(4 bytes @ 0x400E0A04)  returns 0x04 (0001ms, 0840ms total)
T157C 2064:264 JLINK_ReadMem (0x400E0A08, 0x0004 Bytes, ...) -- CPU_ReadMem(4 bytes @ 0x400E0A08) -- Data:  01 00 00 00  returns 0x00 (0000ms, 0840ms total)
T157C 2064:264 JLINK_WriteMem(0x400E0A04, 0x0004 Bytes, ...) -- Data:  09 00 04 5A -- CPU_WriteMem(4 bytes @ 0x400E0A04)  returns 0x04 (0001ms, 0841ms total)
T157C 2064:265 JLINK_ReadMem (0x400E0A08, 0x0004 Bytes, ...) -- CPU_ReadMem(4 bytes @ 0x400E0A08) -- Data:  01 00 00 00  returns 0x00 (0001ms, 0842ms total)
T157C 2064:267 JLINK_WriteMem(0x400E0A04, 0x0004 Bytes, ...) -- Data:  09 80 04 5A -- CPU_WriteMem(4 bytes @ 0x400E0A04)  returns 0x04 (0001ms, 0843ms total)
T157C 2064:268 JLINK_ReadMem (0x400E0A08, 0x0004 Bytes, ...) -- CPU_ReadMem(4 bytes @ 0x400E0A08) -- Data:  01 00 00 00  returns 0x00 (0001ms, 0844ms total)
T157C 2064:269 JLINK_WriteMem(0x400E0A04, 0x0004 Bytes, ...) -- Data:  09 00 05 5A -- CPU_WriteMem(4 bytes @ 0x400E0A04)  returns 0x04 (0001ms, 0845ms total)
T157C 2064:270 JLINK_ReadMem (0x400E0A08, 0x0004 Bytes, ...) -- CPU_ReadMem(4 bytes @ 0x400E0A08) -- Data:  01 00 00 00  returns 0x00 (0001ms, 0846ms total)
T157C 2064:271 JLINK_WriteMem(0x400E0A04, 0x0004 Bytes, ...) -- Data:  09 80 05 5A -- CPU_WriteMem(4 bytes @ 0x400E0A04)  returns 0x04 (0001ms, 0847ms total)
T157C 2064:272 JLINK_ReadMem (0x400E0A08, 0x0004 Bytes, ...) -- CPU_ReadMem(4 bytes @ 0x400E0A08) -- Data:  01 00 00 00  returns 0x00 (0001ms, 0848ms total)
T157C 2064:273 JLINK_WriteMem(0x400E0A04, 0x0004 Bytes, ...) -- Data:  09 00 06 5A -- CPU_WriteMem(4 bytes @ 0x400E0A04)  returns 0x04 (0001ms, 0849ms total)
T157C 2064:274 JLINK_ReadMem (0x400E0A08, 0x0004 Bytes, ...) -- CPU_ReadMem(4 bytes @ 0x400E0A08) -- Data:  01 00 00 00  returns 0x00 (0001ms, 0850ms total)
T157C 2064:275 JLINK_WriteMem(0x400E0A04, 0x0004 Bytes, ...) -- Data:  09 80 06 5A -- CPU_WriteMem(4 bytes @ 0x400E0A04)  returns 0x04 (0001ms, 0851ms total)
T157C 2064:276 JLINK_ReadMem (0x400E0A08, 0x0004 Bytes, ...) -- CPU_ReadMem(4 bytes @ 0x400E0A08) -- Data:  01 00 00 00  returns 0x00 (0001ms, 0852ms total)
T157C 2064:277 JLINK_WriteMem(0x400E0A04, 0x0004 Bytes, ...) -- Data:  09 00 07 5A -- CPU_WriteMem(4 bytes @ 0x400E0A04)  returns 0x04 (0001ms, 0853ms total)
T157C 2064:278 JLINK_ReadMem (0x400E0A08, 0x0004 Bytes, ...) -- CPU_ReadMem(4 bytes @ 0x400E0A08) -- Data:  01 00 00 00  returns 0x00 (0001ms, 0854ms total)
T157C 2064:279 JLINK_WriteMem(0x400E0A04, 0x0004 Bytes, ...) -- Data:  09 80 07 5A -- CPU_WriteMem(4 bytes @ 0x400E0A04)  returns 0x04 (0001ms, 0855ms total)
T157C 2064:280 JLINK_ReadMem (0x400E0A08, 0x0004 Bytes, ...) -- CPU_ReadMem(4 bytes @ 0x400E0A08) -- Data:  01 00 00 00  returns 0x00 (0001ms, 0856ms total)
T157C 2064:281 JLINK_WriteMem(0x400E0A04, 0x0004 Bytes, ...) -- Data:  05 00 00 5A -- CPU_WriteMem(4 bytes @ 0x400E0A04)  returns 0x04 (0001ms, 0857ms total)
T157C 2064:282 JLINK_ReadMem (0x400E0A08, 0x0004 Bytes, ...) -- CPU_ReadMem(4 bytes @ 0x400E0A08) -- Data:  00 00 00 00  returns 0x00 (0001ms, 0858ms total)
T157C 2064:285 JLINK_ReadMem (0x400E0A08, 0x0004 Bytes, ...) -- CPU_ReadMem(4 bytes @ 0x400E0A08) -- Data:  00 00 00 00  returns 0x00 (0001ms, 0859ms total)
T157C 2064:291 JLINK_ReadMem (0x400E0A08, 0x0004 Bytes, ...) -- CPU_ReadMem(4 bytes @ 0x400E0A08) -- Data:  01 00 00 00  returns 0x00 (0001ms, 0860ms total)
T157C 2064:292 JLINK_WriteVectorCatch(0x00000001) -- CPU_ReadMem(4 bytes @ 0xE000EDFC)  returns 0x00 (0002ms, 0862ms total)
T157C 2064:294 JLINK_Reset() -- CPU_ReadMem(16 bytes @ 0x20000000) -- CPU_WriteMem(16 bytes @ 0x20000000) -- CPU_ReadMem(4 bytes @ 0xE000EDFC) -- CPU_WriteMem(4 bytes @ 0xE000EDFC) -- CPU_WriteMem(4 bytes @ 0xE0001004) -- CPU_WriteMem(4 bytes @ 0xE000ED0C) -- CPU_ReadMem(4 bytes @ 0xE000EDF0) -- CPU_ReadMem(4 bytes @ 0xE000EDF0) -- CPU_WriteMem(4 bytes @ 0xE000EDFC) -- CPU_WriteMem(16 bytes @ 0x20000000) -- CPU_WriteMem(4 bytes @ 0xE0002000) -- CPU_ReadMem(4 bytes @ 0xE000EDFC)
 -- CPU_ReadMem(4 bytes @ 0xE0001000) (0042ms, 0904ms total)
T157C 2064:336 JLINK_WriteVectorCatch(0x00000000) -- CPU_ReadMem(4 bytes @ 0xE000EDFC) -- CPU_WriteMem(4 bytes @ 0xE000EDFC)  returns 0x00 (0002ms, 0906ms total)
T157C 2064:338 JLINK_Go() -- CPU_WriteMem(4 bytes @ 0xE0001004) (0002ms, 0908ms total)
T157C 2064:340 JLINK_ExecCommand("ProjectFile = C:\Users\Lonka\Dropbox\Programmierung Allgemein\C ARM_Core\SAM3S_C\GitHub\LBdev\24bit_RGB_interface\..\SAM3S_24bit_RGB_interface\jlink.config", ...)  returns 0x00 (0001ms, 0909ms total)
T157C 2064:387 JLINK_ExecCommand("Device = AT91SAM3SD8C", ...)Device "ATSAM3SD8C" selected (512 KB flash, 64 KB RAM).  returns 0x00 (0000ms, 0909ms total)
T157C 2064:387 JLINK_TIF_Select(JLINKARM_TIF_JTAG)  returns 0x00 (0000ms, 0909ms total)
T157C 2064:387 JLINK_GetIdData(...) ScanLen=4 NumDevices=1 aId[0]=0x4BA00477 aIrRead[0]=0 aScanLen[0]=0 aScanRead[0]=0 (0000ms, 0909ms total)
T157C 2064:387 JLINK_ConfigJTAG(IRPre = 0, DRPre = 0) (0000ms, 0909ms total)
T157C 2064:387 JLINK_SetSpeed(4000) (0000ms, 0909ms total)
T157C 2064:387 JLINK_Connect() >0x2F8 JTAG>TotalIRLen = 4, IRPrint = 0x01 >0x30 JTAG> >0x210 JTAG> >0x70 JTAG> >0x40 JTAG> >0x40 JTAG> >0x40 JTAG> >0x48 JTAG> >0x78 JTAG> >0x40 JTAG> >0x30 JTAG> >0x40 JTAG> >0x40 JTAG> >0x30 JTAG> >0x40 JTAG> >0x48 JTAG>Found Cortex-M3 r2p0, Little endian. -- CPU_WriteMem(4 bytes @ 0xE0002000) -- CPU_ReadMem(4 bytes @ 0xE000EDF0) -- CPU_ReadMem(4 bytes @ 0xE0002000)FPUnit: 6 code (BP) slots and 2 literal slots -- CPU_ReadMem(4 bytes @ 0xE0001000)
 -- CPU_WriteMem(4 bytes @ 0xE0001000) -- CPU_ReadMem(4 bytes @ 0xE00FF010)TPIU fitted. -- CPU_ReadMem(4 bytes @ 0xE00FF014) -- CPU_ReadMem(4 bytes @ 0xE00FF018)  returns 0x00 (0028ms, 0937ms total)
T157C 2064:416 JLINK_WriteVectorCatch(0x00000001) -- CPU is running -- CPU_ReadMem(4 bytes @ 0xE000EDFC) -- CPU is running -- CPU_WriteMem(4 bytes @ 0xE000EDFC)  returns 0x00 (0004ms, 0941ms total)
T157C 2064:420 JLINK_Reset() -- CPU_ReadMem(16 bytes @ 0x20000000) -- CPU_WriteMem(16 bytes @ 0x20000000) -- CPU_ReadMem(4 bytes @ 0xE000EDFC) -- CPU_WriteMem(4 bytes @ 0xE000EDFC) -- CPU_WriteMem(4 bytes @ 0xE000ED0C) -- CPU_ReadMem(4 bytes @ 0xE000EDF0) -- CPU_ReadMem(4 bytes @ 0xE000EDF0) -- CPU_WriteMem(4 bytes @ 0xE000EDFC) -- CPU_WriteMem(16 bytes @ 0x20000000) -- CPU_WriteMem(4 bytes @ 0xE0002000) -- CPU_ReadMem(4 bytes @ 0xE000EDFC) -- CPU_ReadMem(4 bytes @ 0xE0001000) (0036ms, 0977ms total)
T157C 2064:456 JLINK_JTAG_GetDeviceID(DeviceIndex = 0)  returns 0x4BA00477 (0000ms, 0977ms total)
T157C 2064:456 JLINK_ReadMemU32(0x400E0740, 0x0001 Items, ...) -- CPU_ReadMem(4 bytes @ 0x400E0740) -- Data:  60 0A AB 29  returns 0x01 (0001ms, 0978ms total)
T157C 2064:461 JLINK_ReadMem (0x00400900, 0x0100 Bytes, ...) -- CPU_ReadMem(256 bytes @ 0x00400900) -- Updating C cache (256 bytes @ 0x00400900) -- Read from C cache (256 bytes @ 0x00400900) -- Data:  FF FF FF FF FF FF FF FF FF FF FF FF FF FF FF FF ...  returns 0x00 (0003ms, 0981ms total)
T157C 2064:464 JLINK_ReadMem (0x00400E00, 0x0100 Bytes, ...) -- CPU_ReadMem(256 bytes @ 0x00400E00) -- Updating C cache (256 bytes @ 0x00400E00) -- Read from C cache (256 bytes @ 0x00400E00) -- Data:  FF FF FF FF FF FF FF FF FF FF FF FF FF FF FF FF ...  returns 0x00 (0003ms, 0984ms total)
T157C 2064:469 JLINK_WriteMem(0x00400000, 0x0100 Bytes, ...) -- Data:  B8 25 00 20 2D 05 40 00 29 05 40 00 29 05 40 00 ...  returns 0x100 (0000ms, 0984ms total)
T157C 2064:469 JLINK_WriteMem(0x00400100, 0x0100 Bytes, ...) -- Data:  D3 73 59 10 00 D1 08 BD 04 4A 00 2A FB D0 90 47 ...  returns 0x100 (0000ms, 0984ms total)
T157C 2064:469 JLINK_WriteMem(0x00400200, 0x0100 Bytes, ...) -- Data:  81 01 40 00 08 B5 02 48 0C 21 02 4B 98 47 08 BD ...  returns 0x100 (0000ms, 0984ms total)
T157C 2064:469 JLINK_WriteMem(0x00400300, 0x0100 Bytes, ...) -- Data:  0B 40 23 EA 02 03 03 67 43 6F 13 43 43 67 05 E0 ...  returns 0x100 (0000ms, 0984ms total)
T157C 2064:469 JLINK_WriteMem(0x00400400, 0x0100 Bytes, ...) -- Data:  00 04 0E 40 02 4B 98 6E 00 F4 80 30 70 47 00 BF ...  returns 0x100 (0000ms, 0984ms total)
T157C 2064:469 JLINK_WriteMem(0x00400500, 0x0100 Bytes, ...) -- Data:  89 01 05 23 43 50 70 47 00 EB 81 11 48 69 70 47 ...  returns 0x100 (0000ms, 0984ms total)
T157C 2064:469 JLINK_WriteMem(0x00400600, 0x0100 Bytes, ...) -- Data:  FA 42 36 4B 1A 60 4D E0 32 4B 1B 6A 13 F0 80 7F ...  returns 0x100 (0000ms, 0984ms total)
T157C 2064:469 JLINK_WriteMem(0x00400700, 0x0100 Bytes, ...) -- Data:  09 4C 20 46 02 21 0A 4B 98 47 0A 4B 18 60 20 46 ...  returns 0x100 (0000ms, 0984ms total)
T157C 2064:469 JLINK_WriteMem(0x00400800, 0x0100 Bytes, ...) -- Data:  02 21 40 22 0C 4B 98 47 20 46 02 21 0B 4B 98 47 ...  returns 0x100 (0000ms, 0984ms total)
T157C 2064:469 JLINK_WriteMem(0x00400900, 0x0100 Bytes, ...) -- Data:  4F F0 FF 30 BD E8 F8 83 4F F4 C8 70 AF F3 00 80 ...  returns 0x100 (0000ms, 0984ms total)
T157C 2064:469 JLINK_WriteMem(0x00400A00, 0x0100 Bytes, ...) -- Data:  93 6E 13 F0 08 0F FB D0 12 22 07 4B 1A 63 1A 46 ...  returns 0x100 (0000ms, 0984ms total)
T157C 2064:469 JLINK_WriteMem(0x00400B00, 0x0100 Bytes, ...) -- Data:  00 00 00 00 00 00 00 00 00 00 00 00 00 00 00 00 ...  returns 0x100 (0000ms, 0984ms total)
T157C 2064:469 JLINK_WriteMem(0x00400C00, 0x0100 Bytes, ...) -- Data:  00 00 00 00 00 00 00 00 00 00 00 00 00 00 00 00 ...  returns 0x100 (0000ms, 0984ms total)
T157C 2064:469 JLINK_WriteMem(0x00400D00, 0x0100 Bytes, ...) -- Data:  00 00 00 00 00 00 00 00 00 00 00 00 00 00 00 00 ...  returns 0x100 (0000ms, 0984ms total)
T157C 2064:469 JLINK_WriteMem(0x00400E00, 0x0100 Bytes, ...) -- Data:  00 00 00 00 00 00 00 00 00 00 00 00 00 00 00 00 ...  returns 0x100 (0001ms, 0985ms total)
T157C 2064:567 JLINK_WriteMem(0x400E0A04, 0x0004 Bytes, ...) -- Data:  0B 01 00 5A -- -------------------------------------- -- Start of determining dirty areas -- End of determining dirty areas -- Start of preparing flash programming -- Calculating RAM usage -- RAM usage = 2172 Bytes -- Preserving registers -- Preparing memory -- Determining CPU clock frequency -- CPU clock frequency: 3672 kHz -- CPU frequency = 3672 kHz -- Preparing target -- Downloading RAMCode -- Using alternate TurboMode RAMCode
 -- Checking target RAM -- Preparing RAMCode -- End of preparing flash programmingCPU is running at low speed (3672 kHz). -- CPU is running at 3672 kHz. -- Start of comparing flash -- Read back was estimated as fastest method -- Comparing range 0x400000 - 0x400EFF (15 Sectors, 3 KB), using multi-block CRC calculation -- CPU is running -- CPU_ReadMem(256 bytes @ 0x00400000) -- CPU is running -- CPU_ReadMem(256 bytes @ 0x00400100) -- CPU is running -- CPU_ReadMem(256 bytes @ 0x00400200) -- CPU is running
 -- CPU_ReadMem(256 bytes @ 0x00400300) -- CPU is running -- CPU_ReadMem(256 bytes @ 0x00400400) -- CPU is running -- CPU_ReadMem(256 bytes @ 0x00400500) -- CPU is running -- CPU_ReadMem(256 bytes @ 0x00400600) -- CPU is running -- CPU_ReadMem(256 bytes @ 0x00400700) -- CPU is running -- CPU_ReadMem(256 bytes @ 0x00400800) -- CPU is running -- CPU_ReadMem(256 bytes @ 0x00400900) -- CPU is running -- CPU_ReadMem(256 bytes @ 0x00400A00) -- CPU is running -- CPU_ReadMem(256 bytes @ 0x00400B00)
 -- CPU is running -- CPU_ReadMem(256 bytes @ 0x00400C00) -- CPU is running -- CPU_ReadMem(256 bytes @ 0x00400D00) -- CPU is running -- CPU_ReadMem(256 bytes @ 0x00400E00) -- CRC does not match for sectors 0-14 -- End of comparing flash -- Start of erasing sectors -- End of erasing sectors -- Start of flash programming -- Programming range 0x00400000 - 0x00400EFF ( 15 Sectors, 3 KB) -- End of flash programming -- Flash programming performed for 1 range (3840 bytes)
 -- 0x400000 - 0x400EFF (015 Sectors, 3 KB) -- Start of verifying flash -- Checksum calculation was estimated as fastest method -- End of verifying flash -- Start of restoring -- Restore RAMCode -- Restore content of target memory -- Restore target -- Restore memory -- Restore content of registers -- End of restoring -- Total time needed: 0.236s (Prepare: 0.088s, Compare: 0.045s, Erase: 0.000s, Program: 0.090s, Verify: 0.004s, Restore: 0.008s) -- CPU_WriteMem(4 bytes @ 0x400E0A04)  returns 0x04
 (0238ms, 1223ms total)
T157C 2064:806 JLINK_ReadMem (0x400E0A08, 0x0004 Bytes, ...) -- CPU_ReadMem(4 bytes @ 0x400E0A08) -- Data:  01 00 00 00  returns 0x00 (0000ms, 1223ms total)
T157C 2064:806 JLINK_WriteMem(0x400E0A04, 0x0004 Bytes, ...) -- Data:  0B 01 00 5A -- CPU_WriteMem(4 bytes @ 0x400E0A04)  returns 0x04 (0001ms, 1224ms total)
T157C 2064:807 JLINK_ReadMem (0x400E0A08, 0x0004 Bytes, ...) -- CPU_ReadMem(4 bytes @ 0x400E0A08) -- Data:  01 00 00 00  returns 0x00 (0001ms, 1225ms total)
T157C 2064:809 JLINK_JTAG_GetDeviceID(DeviceIndex = 0)  returns 0x4BA00477 (0000ms, 1225ms total)
T157C 2064:809 JLINK_ReadMemU32(0x400E0740, 0x0001 Items, ...) -- CPU_ReadMem(4 bytes @ 0x400E0740) -- Data:  60 0A AB 29  returns 0x01 (0002ms, 1227ms total)
T0A0C 2065:018 JLINK_EMU_GetList(InterfaceMask = 0x00000001, MaxInfos = 0x00000032) [0]: USB, S/N: 28010437  returns 0x01 (0001ms, 1228ms total)
T16A8 2065:369 JLINK_ReadReg(R15 (PC))  returns 0xFFFFFFFE (0002ms, 1230ms total)
T16A8 2065:371 JLINK_WriteVectorCatch(0x00000001) -- CPU_ReadMem(4 bytes @ 0xE000EDFC)  returns 0x00 (0001ms, 1231ms total)
T16A8 2065:372 JLINK_Reset() -- CPU_ReadMem(16 bytes @ 0x20000000) -- CPU_WriteMem(16 bytes @ 0x20000000) -- CPU_ReadMem(4 bytes @ 0xE000EDFC) -- CPU_WriteMem(4 bytes @ 0xE000EDFC) -- CPU_WriteMem(4 bytes @ 0xE000ED0C) -- CPU_ReadMem(4 bytes @ 0xE000EDF0) -- CPU_ReadMem(4 bytes @ 0xE000EDF0) -- CPU_WriteMem(4 bytes @ 0xE000EDFC) -- CPU_WriteMem(16 bytes @ 0x20000000) -- CPU_WriteMem(4 bytes @ 0xE0002000) -- CPU_ReadMem(4 bytes @ 0xE000EDFC) -- CPU_ReadMem(4 bytes @ 0xE0001000) (0033ms, 1264ms total)
T10FC 2065:429 JLINK_IsHalted()  returns TRUE (0000ms, 1264ms total)
T10FC 2065:429 JLINK_GetMOEs(...) -- CPU_ReadMem(4 bytes @ 0xE000ED30) -- CPU_WriteMem(4 bytes @ 0xE000ED30)  returns 0x01 (0001ms, 1265ms total)
T10FC 2065:430 JLINK_ReadReg(R15 (PC))  returns 0x0040052C (0000ms, 1265ms total)
T16A8 2065:446 JLINK_ReadReg(R15 (PC))  returns 0x0040052C (0000ms, 1265ms total)
T16A8 2065:446 JLINK_ReadReg(R13 (SP))  returns 0x200025B8 (0000ms, 1265ms total)
T16A8 2065:449 JLINK_ReadReg(R0)  returns 0x400E1400 (0000ms, 1265ms total)
T16A8 2065:449 JLINK_ReadReg(R1)  returns 0x00000000 (0000ms, 1265ms total)
T16A8 2065:449 JLINK_ReadReg(R2)  returns 0xA5000004 (0000ms, 1265ms total)
T16A8 2065:449 JLINK_ReadReg(R3)  returns 0x00000005 (0000ms, 1265ms total)
T16A8 2065:449 JLINK_ReadReg(R4)  returns 0x40010000 (0000ms, 1265ms total)
T16A8 2065:449 JLINK_ReadReg(R5)  returns 0x1130A104 (0000ms, 1265ms total)
T16A8 2065:449 JLINK_ReadReg(R6)  returns 0x40801000 (0000ms, 1265ms total)
T16A8 2065:449 JLINK_ReadReg(R7)  returns 0x42381000 (0000ms, 1265ms total)
T16A8 2065:449 JLINK_ReadReg(R8)  returns 0x20004802 (0000ms, 1265ms total)
T16A8 2065:449 JLINK_ReadReg(R9)  returns 0x84048000 (0000ms, 1265ms total)
T16A8 2065:449 JLINK_ReadReg(R10)  returns 0x42800284 (0000ms, 1265ms total)
T16A8 2065:449 JLINK_ReadReg(R11)  returns 0x162D1082 (0000ms, 1265ms total)
T16A8 2065:449 JLINK_ReadReg(R12)  returns 0x0D086202 (0000ms, 1265ms total)
T16A8 2065:449 JLINK_ReadReg(R13 (SP))  returns 0x200025B8 (0000ms, 1265ms total)
T16A8 2065:449 JLINK_ReadReg(R14)  returns 0xFFFFFFFF (0000ms, 1265ms total)
T16A8 2065:449 JLINK_ReadReg(R15 (PC))  returns 0x0040052C (0000ms, 1265ms total)
T16A8 2065:449 JLINK_ReadReg(XPSR)  returns 0x01000000 (0000ms, 1265ms total)
T16A8 2065:449 JLINK_ReadReg(MSP)  returns 0x200025B8 (0000ms, 1265ms total)
T16A8 2065:449 JLINK_ReadReg(PSP)  returns 0x81200408 (0000ms, 1265ms total)
T16A8 2065:449 JLINK_ReadReg(APSR)  returns 0x00000000 (0000ms, 1265ms total)
T16A8 2065:449 JLINK_ReadReg(EPSR)  returns 0x01000000 (0000ms, 1265ms total)
T16A8 2065:449 JLINK_ReadReg(IPSR)  returns 0x00000000 (0000ms, 1265ms total)
T16A8 2065:449 JLINK_ReadReg(PRIMASK)  returns 0x00000000 (0000ms, 1265ms total)
T16A8 2065:449 JLINK_ReadReg(BASEPRI)  returns 0x00000000 (0000ms, 1265ms total)
T16A8 2065:449 JLINK_ReadReg(FAULTMASK)  returns 0x00000000 (0001ms, 1266ms total)
T16A8 2065:450 JLINK_ReadReg(CONTROL)  returns 0x00000000 (0000ms, 1266ms total)
T16A8 2065:494 JLINK_ReadReg(R0)  returns 0x400E1400 (0000ms, 1266ms total)
T16A8 2065:494 JLINK_ReadReg(R1)  returns 0x00000000 (0000ms, 1266ms total)
T16A8 2065:494 JLINK_ReadReg(R2)  returns 0xA5000004 (0000ms, 1266ms total)
T16A8 2065:494 JLINK_ReadReg(R3)  returns 0x00000005 (0000ms, 1266ms total)
T16A8 2065:494 JLINK_ReadReg(R4)  returns 0x40010000 (0000ms, 1266ms total)
T16A8 2065:494 JLINK_ReadReg(R5)  returns 0x1130A104 (0000ms, 1266ms total)
T16A8 2065:494 JLINK_ReadReg(R6)  returns 0x40801000 (0000ms, 1266ms total)
T16A8 2065:494 JLINK_ReadReg(R7)  returns 0x42381000 (0000ms, 1266ms total)
T16A8 2065:494 JLINK_ReadReg(R8)  returns 0x20004802 (0000ms, 1266ms total)
T16A8 2065:494 JLINK_ReadReg(R9)  returns 0x84048000 (0000ms, 1266ms total)
T16A8 2065:494 JLINK_ReadReg(R10)  returns 0x42800284 (0000ms, 1266ms total)
T16A8 2065:494 JLINK_ReadReg(R11)  returns 0x162D1082 (0000ms, 1266ms total)
T16A8 2065:494 JLINK_ReadReg(R12)  returns 0x0D086202 (0000ms, 1266ms total)
T16A8 2065:494 JLINK_ReadReg(R13 (SP))  returns 0x200025B8 (0000ms, 1266ms total)
T16A8 2065:494 JLINK_ReadReg(R14)  returns 0xFFFFFFFF (0000ms, 1266ms total)
T16A8 2065:494 JLINK_ReadReg(R15 (PC))  returns 0x0040052C (0000ms, 1266ms total)
T16A8 2065:494 JLINK_ReadReg(XPSR)  returns 0x01000000 (0000ms, 1266ms total)
T16A8 2065:494 JLINK_ReadReg(MSP)  returns 0x200025B8 (0000ms, 1266ms total)
T16A8 2065:494 JLINK_ReadReg(PSP)  returns 0x81200408 (0000ms, 1266ms total)
T16A8 2065:494 JLINK_ReadReg(APSR)  returns 0x00000000 (0000ms, 1266ms total)
T16A8 2065:494 JLINK_ReadReg(EPSR)  returns 0x01000000 (0000ms, 1266ms total)
T16A8 2065:494 JLINK_ReadReg(IPSR)  returns 0x00000000 (0000ms, 1266ms total)
T16A8 2065:494 JLINK_ReadReg(PRIMASK)  returns 0x00000000 (0000ms, 1266ms total)
T16A8 2065:494 JLINK_ReadReg(BASEPRI)  returns 0x00000000 (0000ms, 1266ms total)
T16A8 2065:494 JLINK_ReadReg(FAULTMASK)  returns 0x00000000 (0000ms, 1266ms total)
T16A8 2065:494 JLINK_ReadReg(CONTROL)  returns 0x00000000 (0000ms, 1266ms total)
T16A8 2065:533 JLINK_ReadReg(R15 (PC))  returns 0x0040052C (0000ms, 1266ms total)
T16A8 2065:533 JLINK_WriteVectorCatch(0x00000001) -- CPU_ReadMem(4 bytes @ 0xE000EDFC)  returns 0x00 (0001ms, 1267ms total)
T16A8 2065:534 JLINK_Reset() -- CPU_ReadMem(16 bytes @ 0x20000000) -- CPU_WriteMem(16 bytes @ 0x20000000) -- CPU_ReadMem(4 bytes @ 0xE000EDFC) -- CPU_WriteMem(4 bytes @ 0xE000EDFC) -- CPU_WriteMem(4 bytes @ 0xE0001004) -- CPU_WriteMem(4 bytes @ 0xE000ED0C) -- CPU_ReadMem(4 bytes @ 0xE000EDF0) -- CPU_ReadMem(4 bytes @ 0xE000EDF0) -- CPU_WriteMem(4 bytes @ 0xE000EDFC) -- CPU_WriteMem(16 bytes @ 0x20000000) -- CPU_WriteMem(4 bytes @ 0xE0002000) -- CPU_ReadMem(4 bytes @ 0xE000EDFC)
 -- CPU_ReadMem(4 bytes @ 0xE0001000) (0033ms, 1300ms total)
T10FC 2065:582 JLINK_IsHalted()  returns TRUE (0000ms, 1300ms total)
T10FC 2065:582 JLINK_GetMOEs(...) -- CPU_ReadMem(4 bytes @ 0xE000ED30) -- CPU_WriteMem(4 bytes @ 0xE000ED30)  returns 0x01 (0002ms, 1302ms total)
T10FC 2065:584 JLINK_ReadReg(R15 (PC))  returns 0x0040052C (0000ms, 1302ms total)
T16A8 2065:589 JLINK_ReadReg(R15 (PC))  returns 0x0040052C (0000ms, 1302ms total)
T16A8 2065:589 JLINK_ReadReg(R13 (SP))  returns 0x200025B8 (0000ms, 1302ms total)
T16A8 2065:697 JLINK_ReadReg(R15 (PC))  returns 0x0040052C (0000ms, 1302ms total)
T16A8 2065:697 JLINK_GetNumBPUnits(Type = 0xFFFFFF02)  returns 0x06 (0000ms, 1302ms total)
T16A8 2065:697 JLINK_SetBPEx(Addr = 0x004007A4, Type = 0xFFFFFF02)  returns 0x00000001 (0000ms, 1302ms total)
T16A8 2065:697 JLINK_GetBPInfo(BPHandle = 1)  returns 0x00 (0000ms, 1302ms total)
T16A8 2065:697 JLINK_Go() -- CPU_WriteMem(4 bytes @ 0xE0002008) -- CPU_WriteMem(4 bytes @ 0xE000200C) -- CPU_WriteMem(4 bytes @ 0xE0002010) -- CPU_WriteMem(4 bytes @ 0xE0002014) -- CPU_WriteMem(4 bytes @ 0xE0002018) -- CPU_WriteMem(4 bytes @ 0xE000201C) -- CPU_WriteMem(4 bytes @ 0xE0001004) (0008ms, 1310ms total)
T10FC 2065:725 JLINK_IsHalted()  returns TRUE (0004ms, 1314ms total)
T10FC 2065:729 JLINK_GetMOEs(...) -- CPU_ReadMem(4 bytes @ 0xE000ED30) -- CPU_WriteMem(4 bytes @ 0xE000ED30)  returns 0x01 (0002ms, 1312ms total)
T10FC 2065:731 JLINK_ReadReg(R15 (PC))  returns 0x004007A4 (0000ms, 1312ms total)
T10FC 2065:731 JLINK_GetBPInfo(BPHandle = 1)  returns 0x00 (0000ms, 1312ms total)
T10FC 2065:731 JLINK_ClrBPEx(BPHandle = 0x00000001)  returns 0x00 (0000ms, 1312ms total)
T16A8 2065:737 JLINK_ReadReg(R15 (PC))  returns 0x004007A4 (0000ms, 1312ms total)
T16A8 2065:737 JLINK_ReadReg(R13 (SP))  returns 0x200025B0 (0000ms, 1312ms total)
T16A8 2065:748 JLINK_ReadReg(R15 (PC))  returns 0x004007A4 (0000ms, 1312ms total)
T16A8 2065:748 JLINK_Go() -- CPU_WriteMem(4 bytes @ 0xE0002008) (0002ms, 1314ms total)
T10FC 2065:762 JLINK_IsHalted()  returns FALSE (0000ms, 1314ms total)
T10FC 2065:792 JLINK_IsHalted()  returns FALSE (0000ms, 1314ms total)
T10FC 2065:822 JLINK_IsHalted()  returns FALSE (0001ms, 1315ms total)
T10FC 2065:853 JLINK_IsHalted()  returns FALSE (0001ms, 1315ms total)
T10FC 2065:885 JLINK_IsHalted()  returns FALSE (0000ms, 1314ms total)
T10FC 2065:915 JLINK_IsHalted()  returns FALSE (0001ms, 1315ms total)
T10FC 2065:946 JLINK_IsHalted()  returns FALSE (0001ms, 1315ms total)
T10FC 2065:977 JLINK_IsHalted()  returns FALSE (0001ms, 1315ms total)
T10FC 2066:009 JLINK_IsHalted()  returns FALSE (0000ms, 1314ms total)
T10FC 2066:039 JLINK_IsHalted()  returns FALSE (0001ms, 1315ms total)
T10FC 2066:070 JLINK_IsHalted()  returns FALSE (0001ms, 1315ms total)
T10FC 2066:101 JLINK_IsHalted()  returns FALSE (0000ms, 1314ms total)
T10FC 2066:132 JLINK_IsHalted()  returns FALSE (0000ms, 1314ms total)
T10FC 2066:162 JLINK_IsHalted()  returns FALSE (0001ms, 1315ms total)
T10FC 2066:193 JLINK_IsHalted()  returns FALSE (0001ms, 1315ms total)
T10FC 2066:224 JLINK_IsHalted()  returns FALSE (0001ms, 1315ms total)
T10FC 2066:256 JLINK_IsHalted()  returns FALSE (0000ms, 1314ms total)
T10FC 2066:286 JLINK_IsHalted()  returns FALSE (0001ms, 1315ms total)
T10FC 2066:317 JLINK_IsHalted()  returns FALSE (0001ms, 1315ms total)
T10FC 2066:348 JLINK_IsHalted()  returns FALSE (0000ms, 1314ms total)
T10FC 2066:379 JLINK_IsHalted()  returns FALSE (0001ms, 1315ms total)
T0A0C 2066:384 JLINK_EMU_GetList(InterfaceMask = 0x00000001, MaxInfos = 0x00000032) [0]: USB, S/N: 28010437  returns 0x01 (0001ms, 1315ms total)
T10FC 2066:410 JLINK_IsHalted()  returns FALSE (0001ms, 1316ms total)
T10FC 2066:441 JLINK_IsHalted()  returns FALSE (0001ms, 1316ms total)
T10FC 2066:473 JLINK_IsHalted()  returns FALSE (0000ms, 1315ms total)
T10FC 2066:503 JLINK_IsHalted()  returns FALSE (0000ms, 1315ms total)
T10FC 2066:533 JLINK_IsHalted()  returns FALSE (0001ms, 1316ms total)
